
T0308 000:273 SEGGER J-Link V6.14b Log File (0000ms, 0026ms total)
T0308 000:273 DLL Compiled: Mar  9 2017 08:46:04 (0000ms, 0026ms total)
T0308 000:273 Logging started @ 2020-12-23 19:35 (0000ms, 0026ms total)
T0308 000:273 JLINK_SetWarnOutHandler(...) (0000ms, 0026ms total)
T0308 000:273 JLINK_OpenEx(...)
Firmware: J-Link ARM-OB STM32 compiled Aug 22 2012 19:52:04
Hardware: V7.00
Feature(s): RDI,FlashDL,FlashBP,JFlash,GDBFullWEBSRV Webserver running on local port 19080 (0015ms, 0041ms total)
T0308 000:273   returns O.K. (0015ms, 0041ms total)
T0308 000:288 JLINK_SetErrorOutHandler(...) (0000ms, 0041ms total)
T0308 000:288 JLINK_ExecCommand("ProjectFile = "C:\Users\gaumn\Desktop\git_robomaster\Electronic_Control\gimbal\SmallGyro\MDK-ARM\JLinkSettings.ini"", ...). C:\Program Files (x86)\SEGGER\JLink_V614b\JLinkDevices.xml evaluated successfully.  returns 0x00 (0109ms, 0150ms total)
T0308 000:397 JLINK_ExecCommand("Device = STM32F407IGHx", ...). Device "STM32F407IG" selected.  returns 0x00 (0003ms, 0153ms total)
T0308 000:400 JLINK_ExecCommand("DisableConnectionTimeout", ...).   returns 0x01 (0000ms, 0153ms total)
T0308 000:400 JLINK_GetHardwareVersion()  returns 0x11170 (0000ms, 0153ms total)
T0308 000:400 JLINK_GetDLLVersion()  returns 61402 (0000ms, 0153ms total)
T0308 000:400 JLINK_GetFirmwareString(...) (0000ms, 0153ms total)
T0308 000:400 JLINK_GetDLLVersion()  returns 61402 (0000ms, 0153ms total)
T0308 000:400 JLINK_GetCompileDateTime() (0001ms, 0154ms total)
T0308 000:401 JLINK_GetFirmwareString(...) (0000ms, 0154ms total)
T0308 000:401 JLINK_GetHardwareVersion()  returns 0x11170 (0000ms, 0154ms total)
T0308 000:401 JLINK_TIF_Select(JLINKARM_TIF_SWD)  returns 0x00 (0001ms, 0155ms total)
T0308 000:402 JLINK_SetSpeed(5000) (0000ms, 0155ms total)
T0308 000:402 JLINK_GetId() >0x108 TIF>Found SWD-DP with ID 0x2BA01477 >0x0D TIF> >0x28 TIF> >0x0D TIF> >0x28 TIF> >0x0D TIF> >0x28 TIF> >0x0D TIF> >0x28 TIF> >0x0D TIF> >0x21 TIF> >0x0D TIF> >0x28 TIF> >0x0D TIF> >0x28 TIF> >0x0D TIF> >0x28 TIF> >0x0D TIF> >0x21 TIF> >0x0D TIF> >0x21 TIF> >0x0D TIF> >0x28 TIF> >0x0D TIF> >0x21 TIF> >0x0D TIF> >0x21 TIF> >0x0D TIF> >0x28 TIF> >0x0D TIF> >0x21 TIF> >0x0D TIF> >0x21 TIF> >0x0D TIF> >0x28 TIF> >0x0D TIF> >0x21 TIF> >0x0D TIF> >0x21 TIF> >0x0D TIF>
 >0x28 TIF> >0x0D TIF> >0x21 TIF> >0x0D TIF> >0x21 TIF> >0x0D TIF> >0x28 TIF> >0x0D TIF> >0x21 TIF> >0x0D TIF> >0x21 TIF> >0x108 TIF>Found SWD-DP with ID 0x2BA01477 >0x0D TIF> >0x28 TIF> >0x0D TIF> >0x28 TIF> >0x0D TIF> >0x28 TIF> >0x0D TIF> >0x28 TIF> >0x0D TIF> >0x21 TIF> >0x0D TIF> >0x28 TIF> >0x0D TIF> >0x28 TIF> >0x0D TIF> >0x21 TIF> >0x0D TIF> >0x21 TIF> >0x0D TIF> >0x21 TIF>AP-IDR: 0x24770011, Type: AHB-APAHB-AP ROM: 0xE00FF000 (Base addr. of first ROM table) >0x0D TIF> >0x28 TIF> >0x0D TIF>
 >0x28 TIF> >0x0D TIF> >0x28 TIF> >0x0D TIF> >0x21 TIF> >0x0D TIF> >0x21 TIF> >0x0D TIF> >0x28 TIF> >0x0D TIF> >0x21 TIF> >0x0D TIF> >0x21 TIF>Found Cortex-M4 r0p1, Little endian. -- CPU_ReadMem(4 bytes @ 0xE000EDF0) -- CPU_WriteMem(4 bytes @ 0xE000EDF0) -- CPU_ReadMem(4 bytes @ 0xE0002000)FPUnit: 6 code (BP) slots and 2 literal slots -- CPU_ReadMem(4 bytes @ 0xE000EDFC) -- CPU_WriteMem(4 bytes @ 0xE000EDFC) -- CPU_ReadMem(4 bytes @ 0xE0001000) -- CPU_WriteMem(4 bytes @ 0xE0001000)
 -- CPU_ReadMem(4 bytes @ 0xE000ED88) -- CPU_WriteMem(4 bytes @ 0xE000ED88) -- CPU_ReadMem(4 bytes @ 0xE000ED88) -- CPU_WriteMem(4 bytes @ 0xE000ED88)CoreSight components:ROMTbl 0 @ E00FF000 -- CPU_ReadMem(16 bytes @ 0xE00FF000) -- CPU_ReadMem(16 bytes @ 0xE000EFF0) -- CPU_ReadMem(16 bytes @ 0xE000EFE0)ROMTbl 0 [0]: FFF0F000, CID: B105E00D, PID: 000BB00C SCS -- CPU_ReadMem(16 bytes @ 0xE0001FF0) -- CPU_ReadMem(16 bytes @ 0xE0001FE0)ROMTbl 0 [1]: FFF02000, CID: B105E00D, PID: 003BB002 DWT
 -- CPU_ReadMem(16 bytes @ 0xE0002FF0) -- CPU_ReadMem(16 bytes @ 0xE0002FE0)ROMTbl 0 [2]: FFF03000, CID: B105E00D, PID: 002BB003 FPB -- CPU_ReadMem(16 bytes @ 0xE0000FF0) -- CPU_ReadMem(16 bytes @ 0xE0000FE0)ROMTbl 0 [3]: FFF01000, CID: B105E00D, PID: 003BB001 ITM -- CPU_ReadMem(16 bytes @ 0xE00FF010) -- CPU_ReadMem(16 bytes @ 0xE0040FF0) -- CPU_ReadMem(16 bytes @ 0xE0040FE0)ROMTbl 0 [4]: FFF41000, CID: B105900D, PID: 000BB9A1 TPIU -- CPU_ReadMem(16 bytes @ 0xE0041FF0)
 -- CPU_ReadMem(16 bytes @ 0xE0041FE0)ROMTbl 0 [5]: FFF42000, CID: B105900D, PID: 000BB925 ETM >0x0D TIF> >0x21 TIF>  returns 0x2BA01477 (0049ms, 0204ms total)
T0308 000:451 JLINK_GetDLLVersion()  returns 61402 (0000ms, 0204ms total)
T0308 000:451 JLINK_CORE_GetFound()  returns 0xE0000FF (0000ms, 0204ms total)
T0308 000:451 JLINK_GetDebugInfo(0x100 = JLINKARM_ROM_TABLE_ADDR_INDEX) -- Value=0xE00FF000  returns 0x00 (0000ms, 0204ms total)
T0308 000:451 JLINK_GetDebugInfo(0x100 = JLINKARM_ROM_TABLE_ADDR_INDEX) -- Value=0xE00FF000  returns 0x00 (0001ms, 0205ms total)
T0308 000:452 JLINK_GetDebugInfo(0x101 = JLINKARM_DEBUG_INFO_ETM_ADDR_INDEX) -- Value=0xE0041000  returns 0x00 (0000ms, 0205ms total)
T0308 000:452 JLINK_GetDebugInfo(0x102 = JLINKARM_DEBUG_INFO_MTB_ADDR_INDEX) -- Value=0x00000000  returns 0x00 (0000ms, 0205ms total)
T0308 000:452 JLINK_GetDebugInfo(0x103 = JLINKARM_DEBUG_INFO_TPIU_ADDR_INDEX) -- Value=0xE0040000  returns 0x00 (0000ms, 0205ms total)
T0308 000:452 JLINK_GetDebugInfo(0x104 = JLINKARM_DEBUG_INFO_ITM_ADDR_INDEX) -- Value=0xE0000000  returns 0x00 (0000ms, 0205ms total)
T0308 000:452 JLINK_GetDebugInfo(0x105 = JLINKARM_DEBUG_INFO_DWT_ADDR_INDEX) -- Value=0xE0001000  returns 0x00 (0000ms, 0205ms total)
T0308 000:452 JLINK_GetDebugInfo(0x106 = JLINKARM_DEBUG_INFO_FPB_ADDR_INDEX) -- Value=0xE0002000  returns 0x00 (0000ms, 0205ms total)
T0308 000:452 JLINK_GetDebugInfo(0x107 = JLINKARM_DEBUG_INFO_NVIC_ADDR_INDEX) -- Value=0xE000E000  returns 0x00 (0000ms, 0205ms total)
T0308 000:452 JLINK_GetDebugInfo(0x10C = JLINKARM_DEBUG_INFO_DBG_ADDR_INDEX) -- Value=0xE000EDF0  returns 0x00 (0000ms, 0205ms total)
T0308 000:452 JLINK_ReadMemU32(0xE000EF40, 0x0001 Items, ...) -- CPU is running -- CPU_ReadMem(4 bytes @ 0xE000EF40) - Data: 21 00 11 10  returns 0x01 (0000ms, 0205ms total)
T0308 000:452 JLINK_ReadMemU32(0xE000EF44, 0x0001 Items, ...) -- CPU is running -- CPU_ReadMem(4 bytes @ 0xE000EF44) - Data: 11 00 00 11  returns 0x01 (0001ms, 0206ms total)
T0308 000:453 JLINK_ReadMemU32(0xE000ED00, 0x0001 Items, ...) -- CPU is running -- CPU_ReadMem(4 bytes @ 0xE000ED00) - Data: 41 C2 0F 41  returns 0x01 (0000ms, 0206ms total)
T0308 000:454 JLINK_SetResetType(JLINKARM_CM3_RESET_TYPE_NORMAL)  returns JLINKARM_CM3_RESET_TYPE_NORMAL (0000ms, 0206ms total)
T0308 000:454 JLINK_Reset() -- CPU is running -- CPU_WriteMem(4 bytes @ 0xE000EDF0) -- CPU is running -- CPU_WriteMem(4 bytes @ 0xE000EDFC) >0x35 TIF> -- CPU is running -- CPU_WriteMem(4 bytes @ 0xE000ED0C) >0x0D TIF> >0x28 TIF> -- CPU is running -- CPU_ReadMem(4 bytes @ 0xE000EDF0) -- CPU is running -- CPU_ReadMem(4 bytes @ 0xE000EDF0) -- CPU is running -- CPU_WriteMem(4 bytes @ 0xE000EDF0) -- CPU is running -- CPU_WriteMem(4 bytes @ 0xE000EDFC) -- CPU is running -- CPU_ReadMem(4 bytes @ 0xE000EDF0)
 -- CPU_WriteMem(4 bytes @ 0xE0002000) -- CPU_ReadMem(4 bytes @ 0xE000EDFC) -- CPU_ReadMem(4 bytes @ 0xE0001000) (0070ms, 0276ms total)
T0308 000:525 JLINK_ReadReg(R15 (PC))  returns 0x0800025C (0000ms, 0276ms total)
T0308 000:525 JLINK_ReadReg(XPSR)  returns 0x01000000 (0000ms, 0276ms total)
T0308 000:525 JLINK_Halt()  returns 0x00 (0000ms, 0276ms total)
T0308 000:525 JLINK_IsHalted()  returns TRUE (0000ms, 0276ms total)
T0308 000:525 JLINK_ReadMemU32(0xE000EDF0, 0x0001 Items, ...) -- CPU_ReadMem(4 bytes @ 0xE000EDF0) - Data: 03 00 03 00  returns 0x01 (0000ms, 0276ms total)
T0308 000:525 JLINK_WriteU32(0xE000EDF0, 0xA05F0003) -- CPU_WriteMem(4 bytes @ 0xE000EDF0)  returns 0x00 (0001ms, 0277ms total)
T0308 000:526 JLINK_WriteU32(0xE000EDFC, 0x01000000) -- CPU_WriteMem(4 bytes @ 0xE000EDFC)  returns 0x00 (0001ms, 0278ms total)
T0308 000:531 JLINK_GetHWStatus(...)  returns 0x00 (0000ms, 0278ms total)
T0308 000:533 JLINK_GetNumBPUnits(Type = 0xFFFFFF00)  returns 0x06 (0000ms, 0278ms total)
T0308 000:533 JLINK_GetNumBPUnits(Type = 0xF0)  returns 0x2000 (0000ms, 0278ms total)
T0308 000:533 JLINK_GetNumWPUnits()  returns 0x04 (0000ms, 0278ms total)
T0308 000:537 JLINK_GetSpeed()  returns 0xFA0 (0000ms, 0278ms total)
T0308 000:541 JLINK_ReadMemU32(0xE000E004, 0x0001 Items, ...) -- CPU_ReadMem(4 bytes @ 0xE000E004) - Data: 02 00 00 00  returns 0x01 (0000ms, 0278ms total)
T0308 000:542 JLINK_ReadMemU32(0xE000E004, 0x0001 Items, ...) -- CPU_ReadMem(4 bytes @ 0xE000E004) - Data: 02 00 00 00  returns 0x01 (0000ms, 0278ms total)
T0308 000:542 JLINK_WriteMem(0xE0001000, 0x001C Bytes, ...) - Data: 01 00 00 00 00 00 00 00 00 00 00 00 00 00 00 00 ... -- CPU_WriteMem(28 bytes @ 0xE0001000)  returns 0x1C (0002ms, 0280ms total)
T0308 000:544 JLINK_ReadMem (0xE0001000, 0x001C Bytes, ...) -- CPU_ReadMem(28 bytes @ 0xE0001000) - Data: 01 00 00 40 00 00 00 00 00 00 00 00 00 00 00 00 ...  returns 0x00 (0001ms, 0281ms total)
T0308 000:545 JLINK_ReadReg(R15 (PC))  returns 0x0800025C (0000ms, 0281ms total)
T0308 000:545 JLINK_ReadReg(XPSR)  returns 0x01000000 (0000ms, 0281ms total)
T0308 000:545 JLINK_WriteU32(0xE0041FB0, 0xC5ACCE55) -- CPU_WriteMem(4 bytes @ 0xE0041FB0)  returns 0x00 (0001ms, 0282ms total)
T0308 000:546 JLINK_ReadMemU32(0xE0041000, 0x0001 Items, ...) -- CPU_ReadMem(4 bytes @ 0xE0041000) - Data: 11 04 00 00  returns 0x01 (0000ms, 0282ms total)
T0308 000:546 JLINK_WriteU32(0xE0041000, 0x00000410) -- CPU_WriteMem(4 bytes @ 0xE0041000)  returns 0x00 (0001ms, 0283ms total)
T0308 000:550 JLINK_SWO_Control(JLINKARM_SWO_CMD_GET_SPEED_INFO, ...)  returns 0x00 (0001ms, 0284ms total)
T0308 000:551 JLINK_SWO_Control(JLINKARM_SWO_CMD_STOP, ...)  returns 0x00 (0000ms, 0284ms total)
T0308 000:551 JLINK_SWO_Control(JLINKARM_SWO_CMD_START, ...) -- UART -- 4421052bps -- CPU_ReadMem(4 bytes @ 0xE0042004) -- CPU_WriteMem(4 bytes @ 0xE0042004)  returns 0x00 (0003ms, 0287ms total)
T0308 000:554 JLINK_WriteU32(0xE0040004, 0x00000001) -- CPU_WriteMem(4 bytes @ 0xE0040004)  returns 0x00 (0001ms, 0288ms total)
T0308 000:555 JLINK_WriteU32(0xE0040010, 0x00000025)  returns 0x00 (0000ms, 0288ms total)
T0308 000:555 JLINK_WriteU32(0xE00400F0, 0x00000002)  returns 0x00 (0000ms, 0288ms total)
T0308 000:555 JLINK_WriteU32(0xE0040304, 0x00000000)  returns 0x00 (0000ms, 0288ms total)
T0308 000:555 JLINK_WriteU32(0xE0000FB0, 0xC5ACCE55) -- CPU_WriteMem(4 bytes @ 0xE0000FB0)  returns 0x00 (0000ms, 0288ms total)
T0308 000:555 JLINK_WriteU32(0xE0000E80, 0x0001000D)  returns 0x00 (0000ms, 0288ms total)
T0308 000:555 JLINK_WriteU32(0xE0000E00, 0xFFFFFFFF)  returns 0x00 (0001ms, 0289ms total)
T0308 000:556 JLINK_WriteU32(0xE0000E40, 0x00000008)  returns 0x00 (0000ms, 0289ms total)
T0308 000:556 JLINK_WriteU32(0xE0001000, 0x00010A1F)  returns 0x00 (0000ms, 0289ms total)
T0308 001:477 JLINK_SetResetType(JLINKARM_CM3_RESET_TYPE_NORMAL)  returns JLINKARM_CM3_RESET_TYPE_NORMAL (0000ms, 0289ms total)
T0308 001:477 JLINK_Reset() -- CPU_WriteMem(4 bytes @ 0xE0000E00) -- CPU_WriteMem(4 bytes @ 0xE0000E40) -- CPU_WriteMem(4 bytes @ 0xE0000E80) -- CPU_WriteMem(4 bytes @ 0xE0001000) -- CPU_WriteMem(4 bytes @ 0xE0040010) -- CPU_WriteMem(4 bytes @ 0xE00400F0) -- CPU_WriteMem(4 bytes @ 0xE0040304) -- CPU_WriteMem(4 bytes @ 0xE000EDF0) -- CPU_WriteMem(4 bytes @ 0xE000EDFC) >0x35 TIF> -- CPU_WriteMem(4 bytes @ 0xE000ED0C) >0x0D TIF> >0x28 TIF> -- CPU_ReadMem(4 bytes @ 0xE000EDF0)
 -- CPU_ReadMem(4 bytes @ 0xE000EDF0) -- CPU_WriteMem(4 bytes @ 0xE000EDF0) -- CPU_WriteMem(4 bytes @ 0xE000EDFC) -- CPU is running -- CPU_ReadMem(4 bytes @ 0xE000EDF0) -- CPU_WriteMem(4 bytes @ 0xE0002000) -- CPU_ReadMem(4 bytes @ 0xE000EDFC) -- CPU_ReadMem(4 bytes @ 0xE0001000) -- CPU_ReadMem(4 bytes @ 0xE0042004) (0076ms, 0365ms total)
T0308 001:554 JLINK_WriteU32(0xE000EDFC, 0x01000000) -- CPU_WriteMem(4 bytes @ 0xE000EDFC)  returns 0x00 (0001ms, 0367ms total)
T0308 001:555 JLINK_ReadReg(R15 (PC))  returns 0x0800025C (0001ms, 0368ms total)
T0308 001:556 JLINK_ReadReg(XPSR)  returns 0x01000000 (0000ms, 0368ms total)
T0308 001:560 JLINK_ReadMem (0x0800025C, 0x003C Bytes, ...) -- CPU_ReadMem(128 bytes @ 0x08000240) -- Updating C cache (128 bytes @ 0x08000240) -- Read from C cache (60 bytes @ 0x0800025C) - Data: 06 48 80 47 06 48 00 47 FE E7 FE E7 FE E7 FE E7 ...  returns 0x00 (0003ms, 0371ms total)
T0308 001:673 JLINK_WriteU32(0xE0001008, 0x00000000)  returns 0x00 (0000ms, 0371ms total)
T0308 001:673 JLINK_WriteU32(0xE000100C, 0x00000000)  returns 0x00 (0000ms, 0371ms total)
T0308 001:673 JLINK_WriteU32(0xE0001010, 0x00000000)  returns 0x00 (0000ms, 0371ms total)
T0308 001:673 JLINK_WriteU32(0xE0001014, 0x00000000)  returns 0x00 (0000ms, 0371ms total)
T0308 001:673 JLINK_WriteU32(0xE0001018, 0x00000000)  returns 0x00 (0000ms, 0371ms total)
T0308 003:124 JLINK_ReadMem (0x2000002C, 0x0004 Bytes, ...) -- CPU_ReadMem(64 bytes @ 0x20000000) -- Updating C cache (64 bytes @ 0x20000000) -- Read from C cache (4 bytes @ 0x2000002C) - Data: 70 47 49 1E  returns 0x00 (0001ms, 0372ms total)
T0308 003:129 JLINK_ReadMem (0x20000034, 0x0004 Bytes, ...) -- Read from C cache (4 bytes @ 0x20000034) - Data: 70 47 FF F7  returns 0x00 (0000ms, 0372ms total)
T2774 003:159 JLINK_SetBPEx(Addr = 0x080075A4, Type = 0xFFFFFFF2)  returns 0x00000001 (0000ms, 0372ms total)
T2774 003:159 JLINK_ReadMemU32(0xE0001004, 0x0001 Items, ...) - Data: 00 00 00 00  returns 0x01 (0000ms, 0372ms total)
T2774 003:159 JLINK_WriteU32(0xE0001004, 0x000003FF)  returns 0x00 (0000ms, 0372ms total)
T2774 003:159 JLINK_WriteU32(0xE0001000, 0x00410A1F)  returns 0x00 (0000ms, 0372ms total)
T2774 003:159 JLINK_WriteU32(0xE0000E80, 0x0001000F)  returns 0x00 (0000ms, 0372ms total)
T2774 003:159 JLINK_SWO_Control(JLINKARM_SWO_CMD_GET_NUM_BYTES, ...)  returns 0x00 (0000ms, 0372ms total)
T2774 003:159 JLINK_Go() -- CPU_WriteMem(4 bytes @ 0xE0002000) -- CPU_WriteMem(4 bytes @ 0xE0001000) -- CPU_ReadMem(4 bytes @ 0xE0001000) -- CPU_WriteMem(4 bytes @ 0xE0000E80) -- CPU_WriteMem(4 bytes @ 0xE0001008) -- CPU_WriteMem(4 bytes @ 0xE000100C) -- CPU_WriteMem(4 bytes @ 0xE0001010) -- CPU_WriteMem(4 bytes @ 0xE0001014) -- CPU_WriteMem(4 bytes @ 0xE0001018) -- CPU_WriteMem(4 bytes @ 0xE0002008) -- CPU_WriteMem(4 bytes @ 0xE000200C) -- CPU_WriteMem(4 bytes @ 0xE0002010)
 -- CPU_WriteMem(4 bytes @ 0xE0002014) -- CPU_WriteMem(4 bytes @ 0xE0002018) -- CPU_WriteMem(4 bytes @ 0xE000201C) -- CPU_WriteMem(4 bytes @ 0xE0001004) (0009ms, 0381ms total)
T2774 003:168 JLINK_WriteU32(0xE0001000, 0x00010A1F) -- CPU is running -- CPU_WriteMem(4 bytes @ 0xE0001000)  returns 0x00 (0001ms, 0382ms total)
T2774 003:270 JLINK_SWO_Read(..., Offset = 0x00, NumBytes = 0x400000) - Data:  NumBytesRead = 0x00 (0000ms, 0382ms total)
T2774 003:272 JLINK_SWO_Control(JLINKARM_SWO_CMD_FLUSH, ...)  returns 0x00 (0000ms, 0382ms total)
T2774 003:272 JLINK_IsHalted()  returns TRUE (0003ms, 0385ms total)
T2774 003:276 JLINK_Halt()  returns 0x00 (0000ms, 0382ms total)
T2774 003:276 JLINK_IsHalted()  returns TRUE (0000ms, 0382ms total)
T2774 003:276 JLINK_IsHalted()  returns TRUE (0000ms, 0382ms total)
T2774 003:276 JLINK_IsHalted()  returns TRUE (0000ms, 0382ms total)
T2774 003:276 JLINK_ReadReg(R15 (PC))  returns 0x080075A4 (0000ms, 0382ms total)
T2774 003:276 JLINK_ReadReg(XPSR)  returns 0x61000000 (0000ms, 0382ms total)
T2774 003:276 JLINK_SWO_Read(..., Offset = 0x00, NumBytes = 0x400000) - Data:  NumBytesRead = 0x00 (0000ms, 0382ms total)
T2774 003:278 JLINK_SWO_Control(JLINKARM_SWO_CMD_FLUSH, ...)  returns 0x00 (0000ms, 0382ms total)
T2774 003:278 JLINK_ClrBPEx(BPHandle = 0x00000001)  returns 0x00 (0000ms, 0382ms total)
T2774 003:278 JLINK_ReadMemU32(0xE000ED30, 0x0001 Items, ...) -- CPU_ReadMem(4 bytes @ 0xE000ED30) - Data: 03 00 00 00  returns 0x01 (0001ms, 0383ms total)
T2774 003:279 JLINK_ReadMemU32(0xE0001028, 0x0001 Items, ...) -- CPU_ReadMem(4 bytes @ 0xE0001028) - Data: 00 00 00 00  returns 0x01 (0000ms, 0383ms total)
T2774 003:279 JLINK_ReadMemU32(0xE0001038, 0x0001 Items, ...) -- CPU_ReadMem(4 bytes @ 0xE0001038) - Data: 00 02 00 00  returns 0x01 (0001ms, 0384ms total)
T2774 003:281 JLINK_ReadMemU32(0xE0001048, 0x0001 Items, ...) -- CPU_ReadMem(4 bytes @ 0xE0001048) - Data: 00 00 00 00  returns 0x01 (0000ms, 0384ms total)
T2774 003:281 JLINK_ReadMemU32(0xE0001058, 0x0001 Items, ...) -- CPU_ReadMem(4 bytes @ 0xE0001058) - Data: 00 00 00 00  returns 0x01 (0001ms, 0385ms total)
T2774 003:282 JLINK_ReadReg(R0)  returns 0x080075A5 (0000ms, 0385ms total)
T2774 003:282 JLINK_ReadReg(R1)  returns 0x200077A8 (0000ms, 0385ms total)
T2774 003:282 JLINK_ReadReg(R2)  returns 0x00000000 (0000ms, 0385ms total)
T2774 003:282 JLINK_ReadReg(R3)  returns 0x08006921 (0000ms, 0385ms total)
T2774 003:282 JLINK_ReadReg(R4)  returns 0x08008724 (0000ms, 0385ms total)
T2774 003:282 JLINK_ReadReg(R5)  returns 0x08008724 (0000ms, 0385ms total)
T2774 003:282 JLINK_ReadReg(R6)  returns 0x00000000 (0000ms, 0385ms total)
T2774 003:282 JLINK_ReadReg(R7)  returns 0x00000000 (0000ms, 0385ms total)
T2774 003:283 JLINK_ReadReg(R8)  returns 0x00000000 (0000ms, 0385ms total)
T2774 003:283 JLINK_ReadReg(R9)  returns 0x00000000 (0000ms, 0385ms total)
T2774 003:283 JLINK_ReadReg(R10)  returns 0x00000000 (0000ms, 0385ms total)
T2774 003:283 JLINK_ReadReg(R11)  returns 0x00000000 (0000ms, 0385ms total)
T2774 003:283 JLINK_ReadReg(R12)  returns 0x00000000 (0000ms, 0385ms total)
T2774 003:283 JLINK_ReadReg(R13 (SP))  returns 0x200077A8 (0000ms, 0385ms total)
T2774 003:283 JLINK_ReadReg(R14)  returns 0x08000501 (0000ms, 0385ms total)
T2774 003:283 JLINK_ReadReg(R15 (PC))  returns 0x080075A4 (0000ms, 0385ms total)
T2774 003:283 JLINK_ReadReg(XPSR)  returns 0x61000000 (0000ms, 0385ms total)
T2774 003:283 JLINK_ReadReg(MSP)  returns 0x200077A8 (0000ms, 0385ms total)
T2774 003:283 JLINK_ReadReg(PSP)  returns 0x00000000 (0000ms, 0385ms total)
T2774 003:283 JLINK_ReadReg(CFBP)  returns 0x00000000 (0000ms, 0385ms total)
T2774 003:283 JLINK_ReadReg(FPSCR)  returns 0x00000000 (0005ms, 0390ms total)
T2774 003:289 JLINK_ReadReg(FPS0)  returns 0x00000000 (0000ms, 0390ms total)
T2774 003:289 JLINK_ReadReg(FPS1)  returns 0x00000000 (0000ms, 0390ms total)
T2774 003:289 JLINK_ReadReg(FPS2)  returns 0x00000000 (0000ms, 0390ms total)
T2774 003:289 JLINK_ReadReg(FPS3)  returns 0x00000000 (0000ms, 0390ms total)
T2774 003:289 JLINK_ReadReg(FPS4)  returns 0x00000000 (0000ms, 0390ms total)
T2774 003:289 JLINK_ReadReg(FPS5)  returns 0x00000000 (0000ms, 0390ms total)
T2774 003:289 JLINK_ReadReg(FPS6)  returns 0x00000000 (0000ms, 0390ms total)
T2774 003:289 JLINK_ReadReg(FPS7)  returns 0x00000000 (0000ms, 0390ms total)
T2774 003:289 JLINK_ReadReg(FPS8)  returns 0x00000000 (0000ms, 0390ms total)
T2774 003:289 JLINK_ReadReg(FPS9)  returns 0x00000000 (0000ms, 0390ms total)
T2774 003:289 JLINK_ReadReg(FPS10)  returns 0x00000000 (0000ms, 0390ms total)
T2774 003:289 JLINK_ReadReg(FPS11)  returns 0x00000000 (0000ms, 0390ms total)
T2774 003:289 JLINK_ReadReg(FPS12)  returns 0x00000000 (0000ms, 0390ms total)
T2774 003:289 JLINK_ReadReg(FPS13)  returns 0x00000000 (0001ms, 0391ms total)
T2774 003:290 JLINK_ReadReg(FPS14)  returns 0x00000000 (0000ms, 0391ms total)
T2774 003:290 JLINK_ReadReg(FPS15)  returns 0x00000000 (0000ms, 0391ms total)
T2774 003:290 JLINK_ReadReg(FPS16)  returns 0x00000000 (0000ms, 0391ms total)
T2774 003:290 JLINK_ReadReg(FPS17)  returns 0x00000000 (0000ms, 0391ms total)
T2774 003:290 JLINK_ReadReg(FPS18)  returns 0x00000000 (0000ms, 0391ms total)
T2774 003:290 JLINK_ReadReg(FPS19)  returns 0x00000000 (0000ms, 0391ms total)
T2774 003:290 JLINK_ReadReg(FPS20)  returns 0x00000000 (0000ms, 0391ms total)
T2774 003:290 JLINK_ReadReg(FPS21)  returns 0x00000000 (0000ms, 0391ms total)
T2774 003:290 JLINK_ReadReg(FPS22)  returns 0x00000000 (0000ms, 0391ms total)
T2774 003:290 JLINK_ReadReg(FPS23)  returns 0x00000000 (0000ms, 0391ms total)
T2774 003:290 JLINK_ReadReg(FPS24)  returns 0x00000000 (0000ms, 0391ms total)
T2774 003:290 JLINK_ReadReg(FPS25)  returns 0x00000000 (0000ms, 0391ms total)
T2774 003:290 JLINK_ReadReg(FPS26)  returns 0x00000000 (0000ms, 0391ms total)
T2774 003:290 JLINK_ReadReg(FPS27)  returns 0x00000000 (0000ms, 0391ms total)
T2774 003:290 JLINK_ReadReg(FPS28)  returns 0x00000000 (0000ms, 0391ms total)
T2774 003:290 JLINK_ReadReg(FPS29)  returns 0x00000000 (0000ms, 0391ms total)
T2774 003:290 JLINK_ReadReg(FPS30)  returns 0x00000000 (0000ms, 0391ms total)
T2774 003:290 JLINK_ReadReg(FPS31)  returns 0x00000000 (0000ms, 0391ms total)
T0308 003:317 JLINK_ReadMemU32(0xE0001004, 0x0001 Items, ...) -- CPU_ReadMem(4 bytes @ 0xE0001004) - Data: 2B BE 00 00  returns 0x01 (0001ms, 0392ms total)
T0308 003:318 JLINK_ReadMem (0x2000002C, 0x0004 Bytes, ...) -- CPU_ReadMem(64 bytes @ 0x20000000) -- Updating C cache (64 bytes @ 0x20000000) -- Read from C cache (4 bytes @ 0x2000002C) - Data: 00 00 00 00  returns 0x00 (0002ms, 0394ms total)
T0308 003:320 JLINK_ReadMem (0x20000034, 0x0004 Bytes, ...) -- Read from C cache (4 bytes @ 0x20000034) - Data: 00 00 00 00  returns 0x00 (0000ms, 0394ms total)
T2774 005:548 JLINK_ReadMemU32(0xE0001004, 0x0001 Items, ...) - Data: 2B BE 00 00  returns 0x01 (0000ms, 0394ms total)
T2774 005:548 JLINK_WriteU32(0xE0001004, 0x0000BFFF)  returns 0x00 (0000ms, 0394ms total)
T2774 005:548 JLINK_WriteU32(0xE0001000, 0x00410A1F)  returns 0x00 (0000ms, 0394ms total)
T2774 005:548 JLINK_WriteU32(0xE0000E80, 0x0001000F)  returns 0x00 (0000ms, 0394ms total)
T2774 005:548 JLINK_SWO_Control(JLINKARM_SWO_CMD_GET_NUM_BYTES, ...)  returns 0x00 (0000ms, 0394ms total)
T2774 005:548 JLINK_Go() -- CPU_WriteMem(4 bytes @ 0xE0001000) -- CPU_ReadMem(4 bytes @ 0xE0001000) -- CPU_WriteMem(4 bytes @ 0xE0000E80) -- CPU_WriteMem(4 bytes @ 0xE0002008) -- CPU_WriteMem(4 bytes @ 0xE0001004) (0006ms, 0400ms total)
T2774 005:554 JLINK_WriteU32(0xE0001000, 0x00010A1F) -- CPU is running -- CPU_WriteMem(4 bytes @ 0xE0001000)  returns 0x00 (0000ms, 0400ms total)
T2774 005:655 JLINK_SWO_Read(..., Offset = 0x00, NumBytes = 0x400000) - Data:  NumBytesRead = 0x00 (0000ms, 0400ms total)
T2774 005:657 JLINK_SWO_Control(JLINKARM_SWO_CMD_FLUSH, ...)  returns 0x00 (0000ms, 0400ms total)
T2774 005:657 JLINK_IsHalted()  returns FALSE (0001ms, 0401ms total)
T2774 005:758 JLINK_SWO_Read(..., Offset = 0x00, NumBytes = 0x400000) - Data:  NumBytesRead = 0x00 (0000ms, 0400ms total)
T2774 005:760 JLINK_SWO_Control(JLINKARM_SWO_CMD_FLUSH, ...)  returns 0x00 (0000ms, 0400ms total)
T2774 005:760 JLINK_IsHalted()  returns FALSE (0000ms, 0400ms total)
T2774 005:861 JLINK_SWO_Read(..., Offset = 0x00, NumBytes = 0x400000) - Data:  NumBytesRead = 0x00 (0000ms, 0400ms total)
T2774 005:863 JLINK_SWO_Control(JLINKARM_SWO_CMD_FLUSH, ...)  returns 0x00 (0000ms, 0400ms total)
T2774 005:863 JLINK_IsHalted()  returns FALSE (0001ms, 0401ms total)
T2774 005:965 JLINK_SWO_Read(..., Offset = 0x00, NumBytes = 0x400000) - Data:  NumBytesRead = 0x00 (0000ms, 0400ms total)
T2774 005:967 JLINK_SWO_Control(JLINKARM_SWO_CMD_FLUSH, ...)  returns 0x00 (0000ms, 0400ms total)
T2774 005:967 JLINK_IsHalted()  returns FALSE (0001ms, 0401ms total)
T2774 006:069 JLINK_SWO_Read(..., Offset = 0x00, NumBytes = 0x400000) - Data:  NumBytesRead = 0x00 (0000ms, 0400ms total)
T2774 006:071 JLINK_SWO_Control(JLINKARM_SWO_CMD_FLUSH, ...)  returns 0x00 (0000ms, 0400ms total)
T2774 006:071 JLINK_ReadMemU32(0xE0001004, 0x0001 Items, ...) -- CPU is running -- CPU_ReadMem(4 bytes @ 0xE0001004) - Data: E1 2A 31 05  returns 0x01 (0001ms, 0401ms total)
T0308 006:074 JLINK_ReadMem (0x2000002C, 0x0004 Bytes, ...) -- CPU is running -- CPU_ReadMem(4 bytes @ 0x2000002C) - Data: 00 00 00 00  returns 0x00 (0000ms, 0401ms total)
T0308 006:075 JLINK_ReadMem (0x20000034, 0x0004 Bytes, ...) -- CPU is running -- CPU_ReadMem(4 bytes @ 0x20000034) - Data: 00 00 00 00  returns 0x00 (0001ms, 0402ms total)
T2774 006:080 JLINK_IsHalted()  returns FALSE (0001ms, 0403ms total)
T2774 006:181 JLINK_SWO_Read(..., Offset = 0x00, NumBytes = 0x400000) - Data:  NumBytesRead = 0x00 (0000ms, 0403ms total)
T2774 006:184 JLINK_SWO_Control(JLINKARM_SWO_CMD_FLUSH, ...)  returns 0x00 (0000ms, 0403ms total)
T2774 006:184 JLINK_IsHalted()  returns FALSE (0000ms, 0403ms total)
T2774 006:285 JLINK_SWO_Read(..., Offset = 0x00, NumBytes = 0x400000) - Data:  NumBytesRead = 0x00 (0000ms, 0403ms total)
T2774 006:287 JLINK_SWO_Control(JLINKARM_SWO_CMD_FLUSH, ...)  returns 0x00 (0000ms, 0403ms total)
T2774 006:287 JLINK_IsHalted()  returns FALSE (0001ms, 0404ms total)
T2774 006:389 JLINK_SWO_Read(..., Offset = 0x00, NumBytes = 0x400000) - Data:  NumBytesRead = 0x00 (0000ms, 0403ms total)
T2774 006:391 JLINK_SWO_Control(JLINKARM_SWO_CMD_FLUSH, ...)  returns 0x00 (0000ms, 0403ms total)
T2774 006:391 JLINK_IsHalted()  returns FALSE (0001ms, 0404ms total)
T2774 006:493 JLINK_SWO_Read(..., Offset = 0x00, NumBytes = 0x400000) - Data:  NumBytesRead = 0x00 (0000ms, 0403ms total)
T2774 006:495 JLINK_SWO_Control(JLINKARM_SWO_CMD_FLUSH, ...)  returns 0x00 (0000ms, 0403ms total)
